Title: * .step'ed log file data
Date: N/A
Plotname: unknown
Flags: real forward
No. Variables: 5
No. Points: 7
Offset:   0.0000000000000000e+000
Command: Linear Technology Corporation LTspice IV
Variables:
	0	dr	step
	1	m_left	unknown
	2	m_right	unknown
	3	v_in	unknown
	4	v_pid	unknown
Values:
0		1.000000000000000e+003
	7.872600000000000e+000
	4.127390000000000e+000
	8.988510000000000e+000
	2.627390000000000e+000
1		1.500000000000000e+003
	7.518050000000000e+000
	4.481940000000000e+000
	8.137790000000001e+000
	2.981950000000000e+000
2		2.000000000000000e+003
	6.256370000000000e+000
	5.743620000000000e+000
	5.113620000000000e+000
	4.243620000000000e+000
3		2.500000000000000e+003
	5.301370000000000e+000
	6.698620000000000e+000
	2.827050000000000e+000
	5.198620000000000e+000
4		3.000000000000000e+003
	4.555040000000000e+000
	7.444950000000000e+000
	1.037570000000000e+000
	5.944960000000000e+000
5		3.500000000000000e+003
	4.125000000000000e+000
	7.874990000000000e+000
	5.748560000000000e-003
	6.375000000000000e+000
6		4.000000000000000e+003
	4.124720000000000e+000
	7.875270000000000e+000
	5.079940000000000e-003
	6.375280000000000e+000
